
T1564 000:678 SEGGER J-Link V4.90 Log File (0009ms, 0292ms total)
T1564 000:678 DLL Compiled: Jul 28 2014 10:35:20 (0009ms, 0292ms total)
T1564 000:678 Logging started @ 2019-01-27 22:36 (0009ms, 0292ms total)
T1564 000:688 JLINK_SetWarnOutHandler(...) (0000ms, 0293ms total)
T1564 000:688 JLINK_OpenEx(...)
Firmware: J-Link ARM V8 compiled Dec  1 2015 11:42:48
Hardware: V8.00
S/N: 20080643
Feature(s): RDI,FlashDL,FlashBP,JFlash,GDBFull  returns O.K. (0281ms, 0574ms total)
T1564 000:969 JLINK_SetErrorOutHandler(...) (0000ms, 0574ms total)
T1564 000:970 JLINK_ExecCommand("ProjectFile = "F:\文档\研究生项目\无线门禁系统\wirelessroom_device_master\USER\JLinkSettings.ini"", ...)Device "UNSPECIFIED" selected (0 KB flash, 0 KB RAM).  returns 0x00 (0027ms, 0601ms total)
T1564 001:018 JLINK_ExecCommand("Device = STM32F407ZETx", ...)Device "UNSPECIFIED" selected (0 KB flash, 0 KB RAM).  returns 0x00 (0015ms, 0617ms total)
T1564 001:034 JLINK_ExecCommand("DisableConnectionTimeout", ...)  returns 0x01 (0000ms, 0618ms total)
T1564 001:035 JLINK_GetHardwareVersion()  returns 0x13880 (0000ms, 0618ms total)
T1564 001:035 JLINK_GetDLLVersion()  returns 49000 (0000ms, 0618ms total)
T1564 001:035 JLINK_GetFirmwareString(...) (0000ms, 0618ms total)
T1564 001:084 JLINK_GetDLLVersion()  returns 49000 (0000ms, 0618ms total)
T1564 001:084 JLINK_GetCompileDateTime() (0000ms, 0618ms total)
T1564 001:094 JLINK_GetFirmwareString(...) (0001ms, 0619ms total)
T1564 001:107 JLINK_GetHardwareVersion()  returns 0x13880 (0000ms, 0619ms total)
T1564 001:153 JLINK_TIF_Select(JLINKARM_TIF_SWD)  returns 0x00 (0002ms, 0621ms total)
T1564 001:155 JLINK_SetSpeed(5000) (0001ms, 0622ms total)
T1564 001:156 JLINK_GetId() >0x108 TIF>Found SWD-DP with ID 0x2BA01477 >0x0D TIF> >0x21 TIF> >0x0D TIF> >0x28 TIF> >0x0D TIF> >0x28 TIF> >0x0D TIF> >0x21 TIF> >0x0D TIF> >0x28 TIF> >0x0D TIF> >0x21 TIF> >0x0D TIF> >0x21 TIF> >0x0D TIF> >0x21 TIF> >0x0D TIF> >0x28 TIF> >0x0D TIF> >0x21 TIF> >0x0D TIF> >0x28 TIF> >0x0D TIF> >0x28 TIF> >0x0D TIF> >0x21 TIF> >0x0D TIF> >0x28 TIF> >0x0D TIF> >0x28 TIF> >0x0D TIF> >0x28 TIF> >0x0D TIF> >0x21 TIF> >0x0D TIF> >0x21 TIF> >0x0D TIF> >0x28 TIF> >0x0D TIF>
 >0x21 TIF> >0x0D TIF> >0x21 TIF>Found Cortex-M4 r0p1, Little endian. >0x0D TIF> >0x28 TIF> >0x0D TIF> >0x28 TIF> >0x1A2 TIF> >0x0D TIF> >0x28 TIF> >0x0D TIF> >0x28 TIF> >0x1A0 TIF> >0x0D TIF> >0x28 TIF> >0x0D TIF> >0x28 TIF> >0x1A0 TIF> >0x0D TIF> >0x28 TIF>FPUnit: 6 code (BP) slots and 2 literal slots >0x0D TIF> >0x28 TIF> >0x1A0 TIF> >0x0D TIF> >0x28 TIF> >0x0D TIF> >0x28 TIF> >0x1A0 TIF> >0x0D TIF> >0x28 TIF> >0x0D TIF> >0x28 TIF> >0x1A2 TIF> >0x0D TIF> >0x28 TIF> >0x0D TIF> >0x28 TIF> >0x1A0 TIF>
 >0x0D TIF> >0x28 TIF>TPIU fitted. >0x0D TIF> >0x28 TIF> >0x1A0 TIF> >0x0D TIF> >0x28 TIF>ETM fitted. >0x0D TIF> >0x28 TIF> >0x1A0 TIF> >0x0D TIF> >0x28 TIF> >0x0D TIF> >0x21 TIF>  returns 0x2BA01477 (0132ms, 0754ms total)
T1564 001:288 JLINK_GetDLLVersion()  returns 49000 (0000ms, 0754ms total)
T1564 001:288 JLINK_CORE_GetFound()  returns 0xE0000FF (0000ms, 0754ms total)
T1564 001:302 JLINK_GetDebugInfo(0x100) -- Value=0xE00FF003  returns 0x00 (0000ms, 0754ms total)
T1564 001:302 JLINK_GetDebugInfo(0x101)  returns 0xFFFFFFFF (0000ms, 0754ms total)
T1564 001:302 JLINK_ReadMem (0xE0041FF0, 0x0010 Bytes, ...) -- CPU is running >0x0D TIF> >0x28 TIF> >0x239 TIF> >0x0D TIF> >0x28 TIF> - Data: 0D 00 00 00 90 00 00 00 05 00 00 00 B1 00 00 00  returns 0x00 (0005ms, 0759ms total)
T1564 001:307 JLINK_GetDebugInfo(0x102)  returns 0xFFFFFFFF (0000ms, 0759ms total)
T1564 001:307 JLINK_GetDebugInfo(0x103)  returns 0xFFFFFFFF (0000ms, 0759ms total)
T1564 001:307 JLINK_ReadMem (0xE0040FF0, 0x0010 Bytes, ...) -- CPU is running >0x0D TIF> >0x28 TIF> >0x239 TIF> >0x0D TIF> >0x28 TIF> - Data: 0D 00 00 00 90 00 00 00 05 00 00 00 B1 00 00 00  returns 0x00 (0005ms, 0764ms total)
T1564 001:312 JLINK_GetDebugInfo(0x104)  returns 0xFFFFFFFF (0001ms, 0765ms total)
T1564 001:313 JLINK_GetDebugInfo(0x105)  returns 0xFFFFFFFF (0000ms, 0765ms total)
T1564 001:313 JLINK_GetDebugInfo(0x106)  returns 0xFFFFFFFF (0000ms, 0765ms total)
T1564 001:313 JLINK_GetDebugInfo(0x107)  returns 0xFFFFFFFF (0000ms, 0765ms total)
T1564 001:313 JLINK_GetDebugInfo(0x10C)  returns 0xFFFFFFFF (0000ms, 0765ms total)
T1564 001:313 JLINK_ReadMemU32(0xE000EF40, 0x0001 Items, ...) -- CPU is running >0x0D TIF> >0x28 TIF> >0x1A0 TIF> >0x0D TIF> >0x28 TIF> - Data: 21 00 11 10  returns 0x01 (0004ms, 0769ms total)
T1564 001:318 JLINK_ReadMemU32(0xE000EF44, 0x0001 Items, ...) -- CPU is running >0x0D TIF> >0x28 TIF> >0x1A0 TIF> >0x0D TIF> >0x28 TIF> - Data: 11 00 00 11  returns 0x01 (0003ms, 0772ms total)
T1564 001:322 JLINK_ReadMemU32(0xE000ED00, 0x0001 Items, ...) -- CPU is running >0x0D TIF> >0x28 TIF> >0x1A0 TIF> >0x0D TIF> >0x28 TIF> - Data: 41 C2 0F 41  returns 0x01 (0004ms, 0777ms total)
T1564 001:326 JLINK_SetResetType(JLINKARM_RESET_TYPE_NORMAL)  returns JLINKARM_RESET_TYPE_NORMAL (0000ms, 0777ms total)
T1564 001:326 JLINK_Reset() -- CPU is running >0x0D TIF> >0x28 TIF> >0x1A2 TIF> >0x0D TIF> >0x28 TIF> -- CPU is running >0x0D TIF> >0x28 TIF> >0x1A2 TIF> >0x0D TIF> >0x28 TIF> >0x35 TIF> -- CPU is running >0x0D TIF> >0x28 TIF> >0x1A2 TIF> >0x0D TIF> >0x28 TIF> -- CPU is running >0x0D TIF> >0x28 TIF> >0x1A0 TIF> >0x0D TIF> >0x28 TIF> -- CPU is running >0x0D TIF> >0x28 TIF> >0x1A0 TIF> >0x0D TIF> >0x28 TIF> -- CPU is running >0x0D TIF> >0x28 TIF> >0x1A2 TIF> >0x0D TIF> >0x28 TIF> -- CPU is running
 >0x0D TIF> >0x28 TIF> >0x1A2 TIF> >0x0D TIF> >0x28 TIF> -- CPU is running >0x0D TIF> >0x28 TIF> >0x1A0 TIF> >0x0D TIF> >0x28 TIF> -- CPU is running >0x0D TIF> >0x28 TIF> >0x1A0 TIF> >0x0D TIF> >0x28 TIF> >0x11E4 TIF> >0x0D TIF> >0x28 TIF> >0x1A2 TIF> >0x0D TIF> >0x28 TIF> >0x0D TIF> >0x28 TIF> >0x1A0 TIF> >0x0D TIF> >0x28 TIF> >0x0D TIF> >0x28 TIF> >0x1A0 TIF> >0x0D TIF> >0x28 TIF> (0059ms, 0836ms total)
T1564 001:385 JLINK_Halt()  returns 0x00 (0000ms, 0836ms total)
T1564 001:386 JLINK_IsHalted()  returns TRUE (0000ms, 0837ms total)
T1564 001:386 JLINK_ReadMemU32(0xE000EDF0, 0x0001 Items, ...) >0x0D TIF> >0x28 TIF> >0x1A0 TIF> >0x0D TIF> >0x28 TIF> - Data: 03 00 03 00  returns 0x01 (0003ms, 0840ms total)
T1564 001:389 JLINK_WriteU32(0xE000EDF0, 0xA05F0003) >0x0D TIF> >0x28 TIF> >0x1A2 TIF> >0x0D TIF> >0x28 TIF>  returns 0x00 (0004ms, 0844ms total)
T1564 001:393 JLINK_WriteU32(0xE000EDFC, 0x01000000) >0x0D TIF> >0x28 TIF> >0x1A2 TIF> >0x0D TIF> >0x28 TIF>  returns 0x00 (0004ms, 0848ms total)
T1564 001:432 JLINK_GetHWStatus(...)  returns 0x00 (0000ms, 0848ms total)
T1564 001:456 JLINK_GetNumBPUnits(Type = 0xFFFFFF00)  returns 0x06 (0000ms, 0848ms total)
T1564 001:456 JLINK_GetNumBPUnits(Type = 0xF0)  returns 0x2000 (0000ms, 0848ms total)
T1564 001:456 JLINK_GetNumWPUnits()  returns 0x04 (0001ms, 0849ms total)
T1564 001:484 JLINK_GetSpeed()  returns 0xFA0 (0000ms, 0849ms total)
T1564 001:498 JLINK_ReadMemU32(0xE000E004, 0x0001 Items, ...) >0x0D TIF> >0x28 TIF> >0x1A0 TIF> >0x0D TIF> >0x28 TIF> - Data: 02 00 00 00  returns 0x01 (0004ms, 0853ms total)
T1564 001:502 JLINK_ReadMemU32(0xE000E004, 0x0001 Items, ...) >0x0D TIF> >0x28 TIF> >0x1A0 TIF> >0x0D TIF> >0x28 TIF> - Data: 02 00 00 00  returns 0x01 (0004ms, 0857ms total)
T1564 001:506 JLINK_WriteMem(0xE0001000, 0x001C Bytes, ...) - Data: 01 00 00 00 00 00 00 00 00 00 00 00 00 00 00 00 ... >0x0D TIF> >0x28 TIF> >0x2E0 TIF> >0x0D TIF> >0x28 TIF>  returns 0x1C (0005ms, 0862ms total)
T1564 001:511 JLINK_ReadMem (0xE0001000, 0x001C Bytes, ...) >0x0D TIF> >0x28 TIF> >0x2D2 TIF> >0x0D TIF> >0x28 TIF> - Data: 01 00 00 40 00 00 00 00 00 00 00 00 00 00 00 00 ...  returns 0x00 (0004ms, 0866ms total)
T1564 001:515 JLINK_Halt()  returns 0x00 (0000ms, 0866ms total)
T1564 001:515 JLINK_IsHalted()  returns TRUE (0000ms, 0866ms total)
T1564 001:522 JLINK_WriteMem(0x20000000, 0x0188 Bytes, ...) - Data: 00 BE 0A E0 0D 78 2D 06 68 40 08 24 40 00 00 D3 ... >0x0D TIF> >0x28 TIF> >0x15B7 TIF> >0x0D TIF> >0x28 TIF>  returns 0x188 (0008ms, 0874ms total)
T1564 001:530 JLINK_WriteReg(R0, 0x08000000)  returns 0x00 (0000ms, 0874ms total)
T1564 001:530 JLINK_WriteReg(R1, 0x00B71B00)  returns 0x00 (0001ms, 0875ms total)
T1564 001:531 JLINK_WriteReg(R2, 0x00000001)  returns 0x00 (0000ms, 0875ms total)
T1564 001:531 JLINK_WriteReg(R3, 0x00000000)  returns 0x00 (0000ms, 0875ms total)
T1564 001:531 JLINK_WriteReg(R4, 0x00000000)  returns 0x00 (0000ms, 0875ms total)
T1564 001:531 JLINK_WriteReg(R5, 0x00000000)  returns 0x00 (0000ms, 0875ms total)
T1564 001:531 JLINK_WriteReg(R6, 0x00000000)  returns 0x00 (0000ms, 0875ms total)
T1564 001:531 JLINK_WriteReg(R7, 0x00000000)  returns 0x00 (0001ms, 0876ms total)
T1564 001:532 JLINK_WriteReg(R8, 0x00000000)  returns 0x00 (0000ms, 0876ms total)
T1564 001:532 JLINK_WriteReg(R9, 0x20000184)  returns 0x00 (0000ms, 0876ms total)
T1564 001:532 JLINK_WriteReg(R10, 0x00000000)  returns 0x00 (0000ms, 0876ms total)
T1564 001:532 JLINK_WriteReg(R11, 0x00000000)  returns 0x00 (0000ms, 0876ms total)
T1564 001:532 JLINK_WriteReg(R12, 0x00000000)  returns 0x00 (0000ms, 0876ms total)
T1564 001:533 JLINK_WriteReg(R13 (SP), 0x20001000)  returns 0x00 (0000ms, 0877ms total)
T1564 001:533 JLINK_WriteReg(R14, 0x20000001)  returns 0x00 (0000ms, 0877ms total)
T1564 001:533 JLINK_WriteReg(R15 (PC), 0x2000005E)  returns 0x00 (0000ms, 0877ms total)
T1564 001:533 JLINK_WriteReg(XPSR, 0x01000000)  returns 0x00 (0000ms, 0877ms total)
T1564 001:533 JLINK_WriteReg(MSP, 0x20001000)  returns 0x00 (0000ms, 0877ms total)
T1564 001:534 JLINK_WriteReg(PSP, 0x20001000)  returns 0x00 (0000ms, 0878ms total)
T1564 001:534 JLINK_WriteReg(CFBP, 0x00000000)  returns 0x00 (0000ms, 0878ms total)
T1564 001:534 JLINK_SetBPEx(Addr = 0x20000000, Type = 0xFFFFFFF2) >0x0D TIF> >0x28 TIF> >0x1A0 TIF> >0x0D TIF> >0x28 TIF> >0x0D TIF> >0x28 TIF> >0x1A2 TIF> >0x0D TIF> >0x28 TIF> >0x0D TIF> >0x28 TIF> >0x1A0 TIF> >0x0D TIF> >0x28 TIF> >0x0D TIF> >0x28 TIF> >0x1A2 TIF> >0x0D TIF> >0x28 TIF> >0x0D TIF> >0x28 TIF> >0x1A0 TIF> >0x0D TIF> >0x28 TIF>  returns 0x00000001 (0019ms, 0897ms total)
T1564 001:553 JLINK_Go() >0x0D TIF> >0x28 TIF> >0x1A2 TIF> >0x0D TIF> >0x28 TIF> >0x0D TIF> >0x28 TIF> >0x1A2 TIF> >0x0D TIF> >0x28 TIF> >0x0D TIF> >0x28 TIF> >0x1A2 TIF> >0x0D TIF> >0x28 TIF> >0x0D TIF> >0x28 TIF> >0x1A2 TIF> >0x0D TIF> >0x28 TIF> >0x0D TIF> >0x28 TIF> >0x1A2 TIF> >0x0D TIF> >0x28 TIF> >0x0D TIF> >0x28 TIF> >0x1A2 TIF> >0x0D TIF> >0x28 TIF> >0x0D TIF> >0x28 TIF> >0x1A2 TIF> >0x0D TIF> >0x28 TIF> >0x0D TIF> >0x28 TIF> >0x20E TIF> >0x13A TIF> >0x13A TIF> >0x13A TIF> >0x13A TIF>
 >0x13A TIF> >0x13A TIF> >0x13A TIF> >0x1A2 TIF> >0x0D TIF> >0x28 TIF> (0039ms, 0936ms total)
T1564 001:592 JLINK_IsHalted() -- CPU is running >0x0D TIF> >0x28 TIF> >0x1A0 TIF> >0x0D TIF> >0x28 TIF> >0x11E4 TIF> >0x0D TIF> >0x28 TIF> >0x1A0 TIF> >0x0D TIF> >0x28 TIF>  returns TRUE (0012ms, 0948ms total)
T1564 001:604 JLINK_ReadReg(R15 (PC))  returns 0x20000000 (0000ms, 0936ms total)
T1564 001:604 JLINK_ClrBPEx(BPHandle = 0x00000001)  returns 0x00 (0001ms, 0937ms total)
T1564 001:605 JLINK_ReadReg(R0)  returns 0x00000000 (0000ms, 0937ms total)
T1564 001:606 JLINK_WriteReg(R0, 0x08000000)  returns 0x00 (0000ms, 0937ms total)
T1564 001:606 JLINK_WriteReg(R1, 0x00004000)  returns 0x00 (0000ms, 0937ms total)
T1564 001:606 JLINK_WriteReg(R2, 0x000000FF)  returns 0x00 (0000ms, 0937ms total)
T1564 001:606 JLINK_WriteReg(R3, 0x00000000)  returns 0x00 (0001ms, 0938ms total)
T1564 001:607 JLINK_WriteReg(R4, 0x00000000)  returns 0x00 (0000ms, 0938ms total)
T1564 001:607 JLINK_WriteReg(R5, 0x00000000)  returns 0x00 (0000ms, 0938ms total)
T1564 001:607 JLINK_WriteReg(R6, 0x00000000)  returns 0x00 (0000ms, 0938ms total)
T1564 001:607 JLINK_WriteReg(R7, 0x00000000)  returns 0x00 (0000ms, 0938ms total)
T1564 001:607 JLINK_WriteReg(R8, 0x00000000)  returns 0x00 (0000ms, 0938ms total)
T1564 001:607 JLINK_WriteReg(R9, 0x20000184)  returns 0x00 (0001ms, 0939ms total)
T1564 001:608 JLINK_WriteReg(R10, 0x00000000)  returns 0x00 (0000ms, 0939ms total)
T1564 001:608 JLINK_WriteReg(R11, 0x00000000)  returns 0x00 (0000ms, 0939ms total)
T1564 001:608 JLINK_WriteReg(R12, 0x00000000)  returns 0x00 (0000ms, 0939ms total)
T1564 001:608 JLINK_WriteReg(R13 (SP), 0x20001000)  returns 0x00 (0000ms, 0939ms total)
T1564 001:608 JLINK_WriteReg(R14, 0x20000001)  returns 0x00 (0000ms, 0939ms total)
T1564 001:609 JLINK_WriteReg(R15 (PC), 0x20000020)  returns 0x00 (0000ms, 0940ms total)
T1564 001:609 JLINK_WriteReg(XPSR, 0x01000000)  returns 0x00 (0000ms, 0940ms total)
T1564 001:609 JLINK_WriteReg(MSP, 0x20001000)  returns 0x00 (0000ms, 0940ms total)
T1564 001:609 JLINK_WriteReg(PSP, 0x20001000)  returns 0x00 (0000ms, 0940ms total)
T1564 001:609 JLINK_WriteReg(CFBP, 0x00000000)  returns 0x00 (0000ms, 0940ms total)
T1564 001:609 JLINK_SetBPEx(Addr = 0x20000000, Type = 0xFFFFFFF2)  returns 0x00000002 (0001ms, 0941ms total)
T1564 001:610 JLINK_Go() >0x0D TIF> >0x28 TIF> >0x20E TIF> >0x13A TIF> >0x13A TIF> >0x13A TIF> >0x13A TIF> >0x1A2 TIF> >0x0D TIF> >0x28 TIF> (0009ms, 0950ms total)
T1564 001:619 JLINK_IsHalted() -- CPU is running >0x0D TIF> >0x28 TIF> >0x1A0 TIF> >0x0D TIF> >0x28 TIF> >0x11E4 TIF> >0x0D TIF> >0x28 TIF> >0x1A0 TIF> >0x0D TIF> >0x28 TIF>  returns TRUE (0012ms, 0962ms total)
T1564 001:631 JLINK_ReadReg(R15 (PC))  returns 0x20000000 (0000ms, 0950ms total)
T1564 001:631 JLINK_ClrBPEx(BPHandle = 0x00000002)  returns 0x00 (0000ms, 0950ms total)
T1564 001:631 JLINK_ReadReg(R0)  returns 0x00000001 (0000ms, 0950ms total)
T1564 001:632 JLINK_WriteReg(R0, 0x08000000)  returns 0x00 (0000ms, 0951ms total)
T1564 001:632 JLINK_WriteReg(R1, 0x00004000)  returns 0x00 (0000ms, 0951ms total)
T1564 001:632 JLINK_WriteReg(R2, 0x000000FF)  returns 0x00 (0000ms, 0951ms total)
T1564 001:632 JLINK_WriteReg(R3, 0x00000000)  returns 0x00 (0000ms, 0951ms total)
T1564 001:632 JLINK_WriteReg(R4, 0x00000000)  returns 0x00 (0000ms, 0951ms total)
T1564 001:632 JLINK_WriteReg(R5, 0x00000000)  returns 0x00 (0001ms, 0952ms total)
T1564 001:633 JLINK_WriteReg(R6, 0x00000000)  returns 0x00 (0000ms, 0952ms total)
T1564 001:633 JLINK_WriteReg(R7, 0x00000000)  returns 0x00 (0000ms, 0952ms total)
T1564 001:633 JLINK_WriteReg(R8, 0x00000000)  returns 0x00 (0000ms, 0952ms total)
T1564 001:633 JLINK_WriteReg(R9, 0x20000184)  returns 0x00 (0000ms, 0952ms total)
T1564 001:633 JLINK_WriteReg(R10, 0x00000000)  returns 0x00 (0001ms, 0953ms total)
T1564 001:634 JLINK_WriteReg(R11, 0x00000000)  returns 0x00 (0000ms, 0953ms total)
T1564 001:634 JLINK_WriteReg(R12, 0x00000000)  returns 0x00 (0000ms, 0953ms total)
T1564 001:634 JLINK_WriteReg(R13 (SP), 0x20001000)  returns 0x00 (0000ms, 0953ms total)
T1564 001:634 JLINK_WriteReg(R14, 0x20000001)  returns 0x00 (0000ms, 0953ms total)
T1564 001:634 JLINK_WriteReg(R15 (PC), 0x200000C6)  returns 0x00 (0000ms, 0953ms total)
T1564 001:634 JLINK_WriteReg(XPSR, 0x01000000)  returns 0x00 (0001ms, 0954ms total)
T1564 001:635 JLINK_WriteReg(MSP, 0x20001000)  returns 0x00 (0000ms, 0954ms total)
T1564 001:635 JLINK_WriteReg(PSP, 0x20001000)  returns 0x00 (0000ms, 0954ms total)
T1564 001:635 JLINK_WriteReg(CFBP, 0x00000000)  returns 0x00 (0000ms, 0954ms total)
T1564 001:635 JLINK_SetBPEx(Addr = 0x20000000, Type = 0xFFFFFFF2)  returns 0x00000003 (0000ms, 0954ms total)
T1564 001:635 JLINK_Go() >0x0D TIF> >0x28 TIF> >0x20E TIF> >0x13A TIF> >0x13A TIF> >0x13A TIF> >0x1A2 TIF> >0x0D TIF> >0x28 TIF> (0009ms, 0963ms total)
T1564 001:644 JLINK_IsHalted() -- CPU is running >0x0D TIF> >0x28 TIF> >0x1A0 TIF> >0x0D TIF> >0x28 TIF>  returns FALSE (0004ms, 0967ms total)
T1564 001:818 JLINK_IsHalted() -- CPU is running >0x0D TIF> >0x28 TIF> >0x1A0 TIF> >0x0D TIF> >0x28 TIF>  returns FALSE (0003ms, 0966ms total)
T1564 001:823 JLINK_IsHalted() -- CPU is running >0x0D TIF> >0x28 TIF> >0x1A0 TIF> >0x0D TIF> >0x28 TIF>  returns FALSE (0004ms, 0967ms total)
T1564 001:834 JLINK_IsHalted() -- CPU is running >0x0D TIF> >0x28 TIF> >0x1A0 TIF> >0x0D TIF> >0x28 TIF>  returns FALSE (0004ms, 0967ms total)
T1564 001:846 JLINK_IsHalted() -- CPU is running >0x0D TIF> >0x28 TIF> >0x1A0 TIF> >0x0D TIF> >0x28 TIF>  returns FALSE (0005ms, 0968ms total)
T1564 001:859 JLINK_IsHalted() -- CPU is running >0x0D TIF> >0x28 TIF> >0x1A0 TIF> >0x0D TIF> >0x28 TIF>  returns FALSE (0004ms, 0967ms total)
T1564 001:865 JLINK_IsHalted() -- CPU is running >0x0D TIF> >0x28 TIF> >0x1A0 TIF> >0x0D TIF> >0x28 TIF>  returns FALSE (0004ms, 0967ms total)
T1564 001:871 JLINK_IsHalted() -- CPU is running >0x0D TIF> >0x28 TIF> >0x1A0 TIF> >0x0D TIF> >0x28 TIF>  returns FALSE (0004ms, 0967ms total)
T1564 001:882 JLINK_IsHalted() -- CPU is running >0x0D TIF> >0x28 TIF> >0x1A0 TIF> >0x0D TIF> >0x28 TIF>  returns FALSE (0004ms, 0967ms total)
T1564 001:893 JLINK_IsHalted() -- CPU is running >0x0D TIF> >0x28 TIF> >0x1A0 TIF> >0x0D TIF> >0x28 TIF>  returns FALSE (0004ms, 0967ms total)
T1564 001:899 JLINK_IsHalted() -- CPU is running >0x0D TIF> >0x28 TIF> >0x1A0 TIF> >0x0D TIF> >0x28 TIF>  returns FALSE (0004ms, 0967ms total)
T1564 001:912 JLINK_IsHalted() -- CPU is running >0x0D TIF> >0x28 TIF> >0x1A0 TIF> >0x0D TIF> >0x28 TIF>  returns FALSE (0003ms, 0966ms total)
T1564 001:927 JLINK_IsHalted() -- CPU is running >0x0D TIF> >0x28 TIF> >0x1A0 TIF> >0x0D TIF> >0x28 TIF>  returns FALSE (0004ms, 0967ms total)
T1564 001:933 JLINK_IsHalted() -- CPU is running >0x0D TIF> >0x28 TIF> >0x1A0 TIF> >0x0D TIF> >0x28 TIF>  returns FALSE (0004ms, 0967ms total)
T1564 001:945 JLINK_IsHalted() -- CPU is running >0x0D TIF> >0x28 TIF> >0x1A0 TIF> >0x0D TIF> >0x28 TIF>  returns FALSE (0004ms, 0967ms total)
T1564 001:956 JLINK_IsHalted() -- CPU is running >0x0D TIF> >0x28 TIF> >0x1A0 TIF> >0x0D TIF> >0x28 TIF>  returns FALSE (0004ms, 0967ms total)
T1564 001:962 JLINK_IsHalted() -- CPU is running >0x0D TIF> >0x28 TIF> >0x1A0 TIF> >0x0D TIF> >0x28 TIF>  returns FALSE (0004ms, 0967ms total)
T1564 001:968 JLINK_IsHalted() -- CPU is running >0x0D TIF> >0x28 TIF> >0x1A0 TIF> >0x0D TIF> >0x28 TIF>  returns FALSE (0004ms, 0967ms total)
T1564 001:986 JLINK_IsHalted() -- CPU is running >0x0D TIF> >0x28 TIF> >0x1A0 TIF> >0x0D TIF> >0x28 TIF>  returns FALSE (0004ms, 0967ms total)
T1564 001:992 JLINK_IsHalted() -- CPU is running >0x0D TIF> >0x28 TIF> >0x1A0 TIF> >0x0D TIF> >0x28 TIF>  returns FALSE (0004ms, 0967ms total)
T1564 002:004 JLINK_IsHalted() -- CPU is running >0x0D TIF> >0x28 TIF> >0x1A0 TIF> >0x0D TIF> >0x28 TIF>  returns FALSE (0004ms, 0967ms total)
T1564 002:016 JLINK_IsHalted() -- CPU is running >0x0D TIF> >0x28 TIF> >0x1A0 TIF> >0x0D TIF> >0x28 TIF> >0x11E4 TIF> >0x0D TIF> >0x28 TIF> >0x1A0 TIF> >0x0D TIF> >0x28 TIF>  returns TRUE (0012ms, 0975ms total)
T1564 002:028 JLINK_ReadReg(R15 (PC))  returns 0x20000000 (0000ms, 0963ms total)
T1564 002:028 JLINK_ClrBPEx(BPHandle = 0x00000003)  returns 0x00 (0000ms, 0963ms total)
T1564 002:028 JLINK_ReadReg(R0)  returns 0x00000000 (0001ms, 0964ms total)
T1564 002:030 JLINK_WriteReg(R0, 0x08004000)  returns 0x00 (0000ms, 0964ms total)
T1564 002:030 JLINK_WriteReg(R1, 0x00004000)  returns 0x00 (0000ms, 0964ms total)
T1564 002:030 JLINK_WriteReg(R2, 0x000000FF)  returns 0x00 (0000ms, 0964ms total)
T1564 002:030 JLINK_WriteReg(R3, 0x00000000)  returns 0x00 (0001ms, 0965ms total)
T1564 002:031 JLINK_WriteReg(R4, 0x00000000)  returns 0x00 (0000ms, 0965ms total)
T1564 002:031 JLINK_WriteReg(R5, 0x00000000)  returns 0x00 (0000ms, 0965ms total)
T1564 002:031 JLINK_WriteReg(R6, 0x00000000)  returns 0x00 (0000ms, 0965ms total)
T1564 002:031 JLINK_WriteReg(R7, 0x00000000)  returns 0x00 (0000ms, 0965ms total)
T1564 002:031 JLINK_WriteReg(R8, 0x00000000)  returns 0x00 (0000ms, 0965ms total)
T1564 002:031 JLINK_WriteReg(R9, 0x20000184)  returns 0x00 (0000ms, 0965ms total)
T1564 002:032 JLINK_WriteReg(R10, 0x00000000)  returns 0x00 (0000ms, 0966ms total)
T1564 002:032 JLINK_WriteReg(R11, 0x00000000)  returns 0x00 (0000ms, 0966ms total)
T1564 002:032 JLINK_WriteReg(R12, 0x00000000)  returns 0x00 (0000ms, 0966ms total)
T1564 002:032 JLINK_WriteReg(R13 (SP), 0x20001000)  returns 0x00 (0000ms, 0966ms total)
T1564 002:032 JLINK_WriteReg(R14, 0x20000001)  returns 0x00 (0000ms, 0966ms total)
T1564 002:032 JLINK_WriteReg(R15 (PC), 0x20000020)  returns 0x00 (0000ms, 0966ms total)
T1564 002:032 JLINK_WriteReg(XPSR, 0x01000000)  returns 0x00 (0001ms, 0967ms total)
T1564 002:033 JLINK_WriteReg(MSP, 0x20001000)  returns 0x00 (0000ms, 0967ms total)
T1564 002:033 JLINK_WriteReg(PSP, 0x20001000)  returns 0x00 (0000ms, 0967ms total)
T1564 002:033 JLINK_WriteReg(CFBP, 0x00000000)  returns 0x00 (0000ms, 0967ms total)
T1564 002:033 JLINK_SetBPEx(Addr = 0x20000000, Type = 0xFFFFFFF2)  returns 0x00000004 (0000ms, 0967ms total)
T1564 002:033 JLINK_Go() >0x0D TIF> >0x28 TIF> >0x20E TIF> >0x13A TIF> >0x13A TIF> >0x13A TIF> >0x13A TIF> >0x13A TIF> >0x13A TIF> >0x1A2 TIF> >0x0D TIF> >0x28 TIF> (0011ms, 0978ms total)
T1564 002:045 JLINK_IsHalted() -- CPU is running >0x0D TIF> >0x28 TIF> >0x1A0 TIF> >0x0D TIF> >0x28 TIF> >0x11E4 TIF> >0x0D TIF> >0x28 TIF> >0x1A0 TIF> >0x0D TIF> >0x28 TIF>  returns TRUE (0011ms, 0990ms total)
T1564 002:056 JLINK_ReadReg(R15 (PC))  returns 0x20000000 (0000ms, 0979ms total)
T1564 002:056 JLINK_ClrBPEx(BPHandle = 0x00000004)  returns 0x00 (0001ms, 0980ms total)
T1564 002:057 JLINK_ReadReg(R0)  returns 0x00000001 (0000ms, 0980ms total)
T1564 002:057 JLINK_WriteReg(R0, 0x08004000)  returns 0x00 (0000ms, 0980ms total)
T1564 002:057 JLINK_WriteReg(R1, 0x00004000)  returns 0x00 (0000ms, 0980ms total)
T1564 002:057 JLINK_WriteReg(R2, 0x000000FF)  returns 0x00 (0000ms, 0980ms total)
T1564 002:057 JLINK_WriteReg(R3, 0x00000000)  returns 0x00 (0000ms, 0980ms total)
T1564 002:057 JLINK_WriteReg(R4, 0x00000000)  returns 0x00 (0001ms, 0981ms total)
T1564 002:058 JLINK_WriteReg(R5, 0x00000000)  returns 0x00 (0000ms, 0981ms total)
T1564 002:058 JLINK_WriteReg(R6, 0x00000000)  returns 0x00 (0000ms, 0981ms total)
T1564 002:058 JLINK_WriteReg(R7, 0x00000000)  returns 0x00 (0000ms, 0981ms total)
T1564 002:058 JLINK_WriteReg(R8, 0x00000000)  returns 0x00 (0000ms, 0981ms total)
T1564 002:059 JLINK_WriteReg(R9, 0x20000184)  returns 0x00 (0000ms, 0982ms total)
T1564 002:059 JLINK_WriteReg(R10, 0x00000000)  returns 0x00 (0000ms, 0982ms total)
T1564 002:059 JLINK_WriteReg(R11, 0x00000000)  returns 0x00 (0000ms, 0982ms total)
T1564 002:059 JLINK_WriteReg(R12, 0x00000000)  returns 0x00 (0000ms, 0982ms total)
T1564 002:059 JLINK_WriteReg(R13 (SP), 0x20001000)  returns 0x00 (0000ms, 0982ms total)
T1564 002:059 JLINK_WriteReg(R14, 0x20000001)  returns 0x00 (0001ms, 0983ms total)
T1564 002:060 JLINK_WriteReg(R15 (PC), 0x200000C6)  returns 0x00 (0000ms, 0983ms total)
T1564 002:060 JLINK_WriteReg(XPSR, 0x01000000)  returns 0x00 (0000ms, 0983ms total)
T1564 002:060 JLINK_WriteReg(MSP, 0x20001000)  returns 0x00 (0000ms, 0983ms total)
T1564 002:060 JLINK_WriteReg(PSP, 0x20001000)  returns 0x00 (0000ms, 0983ms total)
T1564 002:060 JLINK_WriteReg(CFBP, 0x00000000)  returns 0x00 (0000ms, 0983ms total)
T1564 002:060 JLINK_SetBPEx(Addr = 0x20000000, Type = 0xFFFFFFF2)  returns 0x00000005 (0001ms, 0984ms total)
T1564 002:061 JLINK_Go() >0x0D TIF> >0x28 TIF> >0x20E TIF> >0x13A TIF> >0x13A TIF> >0x13A TIF> >0x1A2 TIF> >0x0D TIF> >0x28 TIF> (0007ms, 0991ms total)
T1564 002:069 JLINK_IsHalted() -- CPU is running >0x0D TIF> >0x28 TIF> >0x1A0 TIF> >0x0D TIF> >0x28 TIF>  returns FALSE (0004ms, 0996ms total)
T1564 002:093 JLINK_IsHalted() -- CPU is running >0x0D TIF> >0x28 TIF> >0x1A0 TIF> >0x0D TIF> >0x28 TIF>  returns FALSE (0004ms, 0996ms total)
T1564 002:099 JLINK_IsHalted() -- CPU is running >0x0D TIF> >0x28 TIF> >0x1A0 TIF> >0x0D TIF> >0x28 TIF>  returns FALSE (0004ms, 0996ms total)
T1564 002:111 JLINK_IsHalted() -- CPU is running >0x0D TIF> >0x28 TIF> >0x1A0 TIF> >0x0D TIF> >0x28 TIF>  returns FALSE (0004ms, 0996ms total)
T1564 002:117 JLINK_IsHalted() -- CPU is running >0x0D TIF> >0x28 TIF> >0x1A0 TIF> >0x0D TIF> >0x28 TIF>  returns FALSE (0004ms, 0996ms total)
T1564 002:123 JLINK_IsHalted() -- CPU is running >0x0D TIF> >0x28 TIF> >0x1A0 TIF> >0x0D TIF> >0x28 TIF>  returns FALSE (0004ms, 0996ms total)
T1564 002:146 JLINK_IsHalted() -- CPU is running >0x0D TIF> >0x28 TIF> >0x1A0 TIF> >0x0D TIF> >0x28 TIF>  returns FALSE (0004ms, 0996ms total)
T1564 002:152 JLINK_IsHalted() -- CPU is running >0x0D TIF> >0x28 TIF> >0x1A0 TIF> >0x0D TIF> >0x28 TIF>  returns FALSE (0004ms, 0996ms total)
T1564 002:163 JLINK_IsHalted() -- CPU is running >0x0D TIF> >0x28 TIF> >0x1A0 TIF> >0x0D TIF> >0x28 TIF>  returns FALSE (0004ms, 0996ms total)
T1564 002:175 JLINK_IsHalted() -- CPU is running >0x0D TIF> >0x28 TIF> >0x1A0 TIF> >0x0D TIF> >0x28 TIF>  returns FALSE (0004ms, 0996ms total)
T1564 002:181 JLINK_IsHalted() -- CPU is running >0x0D TIF> >0x28 TIF> >0x1A0 TIF> >0x0D TIF> >0x28 TIF>  returns FALSE (0004ms, 0996ms total)
T1564 002:192 JLINK_IsHalted() -- CPU is running >0x0D TIF> >0x28 TIF> >0x1A0 TIF> >0x0D TIF> >0x28 TIF>  returns FALSE (0004ms, 0996ms total)
T1564 002:198 JLINK_IsHalted() -- CPU is running >0x0D TIF> >0x28 TIF> >0x1A0 TIF> >0x0D TIF> >0x28 TIF>  returns FALSE (0004ms, 0996ms total)
T1564 002:210 JLINK_IsHalted() -- CPU is running >0x0D TIF> >0x28 TIF> >0x1A0 TIF> >0x0D TIF> >0x28 TIF>  returns FALSE (0004ms, 0996ms total)
T1564 002:221 JLINK_IsHalted() -- CPU is running >0x0D TIF> >0x28 TIF> >0x1A0 TIF> >0x0D TIF> >0x28 TIF>  returns FALSE (0004ms, 0996ms total)
T1564 002:227 JLINK_IsHalted() -- CPU is running >0x0D TIF> >0x28 TIF> >0x1A0 TIF> >0x0D TIF> >0x28 TIF>  returns FALSE (0004ms, 0996ms total)
T1564 002:239 JLINK_IsHalted() -- CPU is running >0x0D TIF> >0x28 TIF> >0x1A0 TIF> >0x0D TIF> >0x28 TIF>  returns FALSE (0004ms, 0996ms total)
T1564 002:245 JLINK_IsHalted() -- CPU is running >0x0D TIF> >0x28 TIF> >0x1A0 TIF> >0x0D TIF> >0x28 TIF>  returns FALSE (0005ms, 0997ms total)
T1564 002:266 JLINK_IsHalted() -- CPU is running >0x0D TIF> >0x28 TIF> >0x1A0 TIF> >0x0D TIF> >0x28 TIF>  returns FALSE (0004ms, 0996ms total)
T1564 002:272 JLINK_IsHalted() -- CPU is running >0x0D TIF> >0x28 TIF> >0x1A0 TIF> >0x0D TIF> >0x28 TIF>  returns FALSE (0004ms, 0996ms total)
T1564 002:284 JLINK_IsHalted() -- CPU is running >0x0D TIF> >0x28 TIF> >0x1A0 TIF> >0x0D TIF> >0x28 TIF>  returns FALSE (0004ms, 0996ms total)
T1564 002:303 JLINK_IsHalted() -- CPU is running >0x0D TIF> >0x28 TIF> >0x1A0 TIF> >0x0D TIF> >0x28 TIF>  returns FALSE (0004ms, 0996ms total)
T1564 002:334 JLINK_IsHalted() -- CPU is running >0x0D TIF> >0x28 TIF> >0x1A0 TIF> >0x0D TIF> >0x28 TIF>  returns FALSE (0004ms, 0996ms total)
T1564 002:372 JLINK_IsHalted() -- CPU is running >0x0D TIF> >0x28 TIF> >0x1A0 TIF> >0x0D TIF> >0x28 TIF>  returns FALSE (0004ms, 0996ms total)
T1564 002:396 JLINK_IsHalted() -- CPU is running >0x0D TIF> >0x28 TIF> >0x1A0 TIF> >0x0D TIF> >0x28 TIF>  returns FALSE (0004ms, 0996ms total)
T1564 002:414 JLINK_IsHalted() -- CPU is running >0x0D TIF> >0x28 TIF> >0x1A0 TIF> >0x0D TIF> >0x28 TIF>  returns FALSE (0004ms, 0996ms total)
T1564 002:429 JLINK_IsHalted() -- CPU is running >0x0D TIF> >0x28 TIF> >0x1A0 TIF> >0x0D TIF> >0x28 TIF>  returns FALSE (0004ms, 0996ms total)
T1564 002:457 JLINK_IsHalted() -- CPU is running >0x0D TIF> >0x28 TIF> >0x1A0 TIF> >0x0D TIF> >0x28 TIF> >0x11E4 TIF> >0x0D TIF> >0x28 TIF> >0x1A0 TIF> >0x0D TIF> >0x28 TIF>  returns TRUE (0012ms, 1004ms total)
T1564 002:469 JLINK_ReadReg(R15 (PC))  returns 0x20000000 (0000ms, 0992ms total)
T1564 002:469 JLINK_ClrBPEx(BPHandle = 0x00000005)  returns 0x00 (0000ms, 0992ms total)
T1564 002:469 JLINK_ReadReg(R0)  returns 0x00000000 (0000ms, 0992ms total)
T1564 002:471 JLINK_WriteReg(R0, 0x08008000)  returns 0x00 (0000ms, 0992ms total)
T1564 002:471 JLINK_WriteReg(R1, 0x00004000)  returns 0x00 (0001ms, 0993ms total)
T1564 002:472 JLINK_WriteReg(R2, 0x000000FF)  returns 0x00 (0000ms, 0993ms total)
T1564 002:472 JLINK_WriteReg(R3, 0x00000000)  returns 0x00 (0000ms, 0993ms total)
T1564 002:472 JLINK_WriteReg(R4, 0x00000000)  returns 0x00 (0000ms, 0993ms total)
T1564 002:472 JLINK_WriteReg(R5, 0x00000000)  returns 0x00 (0000ms, 0993ms total)
T1564 002:472 JLINK_WriteReg(R6, 0x00000000)  returns 0x00 (0000ms, 0993ms total)
T1564 002:472 JLINK_WriteReg(R7, 0x00000000)  returns 0x00 (0001ms, 0994ms total)
T1564 002:473 JLINK_WriteReg(R8, 0x00000000)  returns 0x00 (0000ms, 0994ms total)
T1564 002:473 JLINK_WriteReg(R9, 0x20000184)  returns 0x00 (0000ms, 0994ms total)
T1564 002:473 JLINK_WriteReg(R10, 0x00000000)  returns 0x00 (0000ms, 0994ms total)
T1564 002:473 JLINK_WriteReg(R11, 0x00000000)  returns 0x00 (0000ms, 0994ms total)
T1564 002:473 JLINK_WriteReg(R12, 0x00000000)  returns 0x00 (0000ms, 0994ms total)
T1564 002:473 JLINK_WriteReg(R13 (SP), 0x20001000)  returns 0x00 (0001ms, 0995ms total)
T1564 002:474 JLINK_WriteReg(R14, 0x20000001)  returns 0x00 (0000ms, 0995ms total)
T1564 002:474 JLINK_WriteReg(R15 (PC), 0x20000020)  returns 0x00 (0000ms, 0995ms total)
T1564 002:474 JLINK_WriteReg(XPSR, 0x01000000)  returns 0x00 (0000ms, 0995ms total)
T1564 002:474 JLINK_WriteReg(MSP, 0x20001000)  returns 0x00 (0000ms, 0995ms total)
T1564 002:474 JLINK_WriteReg(PSP, 0x20001000)  returns 0x00 (0000ms, 0995ms total)
T1564 002:474 JLINK_WriteReg(CFBP, 0x00000000)  returns 0x00 (0001ms, 0996ms total)
T1564 002:475 JLINK_SetBPEx(Addr = 0x20000000, Type = 0xFFFFFFF2)  returns 0x00000006 (0000ms, 0996ms total)
T1564 002:475 JLINK_Go() >0x0D TIF> >0x28 TIF> >0x20E TIF> >0x13A TIF> >0x13A TIF> >0x13A TIF> >0x13A TIF> >0x13A TIF> >0x13A TIF> >0x1A2 TIF> >0x0D TIF> >0x28 TIF> (0011ms, 1007ms total)
T1564 002:486 JLINK_IsHalted() -- CPU is running >0x0D TIF> >0x28 TIF> >0x1A0 TIF> >0x0D TIF> >0x28 TIF> >0x11E4 TIF> >0x0D TIF> >0x28 TIF> >0x1A0 TIF> >0x0D TIF> >0x28 TIF>  returns TRUE (0012ms, 1019ms total)
T1564 002:498 JLINK_ReadReg(R15 (PC))  returns 0x20000000 (0000ms, 1007ms total)
T1564 002:498 JLINK_ClrBPEx(BPHandle = 0x00000006)  returns 0x00 (0000ms, 1007ms total)
T1564 002:498 JLINK_ReadReg(R0)  returns 0x00000001 (0001ms, 1008ms total)
T1564 002:499 JLINK_WriteReg(R0, 0x08008000)  returns 0x00 (0000ms, 1008ms total)
T1564 002:499 JLINK_WriteReg(R1, 0x00004000)  returns 0x00 (0000ms, 1008ms total)
T1564 002:499 JLINK_WriteReg(R2, 0x000000FF)  returns 0x00 (0000ms, 1008ms total)
T1564 002:499 JLINK_WriteReg(R3, 0x00000000)  returns 0x00 (0000ms, 1008ms total)
T1564 002:499 JLINK_WriteReg(R4, 0x00000000)  returns 0x00 (0000ms, 1008ms total)
T1564 002:499 JLINK_WriteReg(R5, 0x00000000)  returns 0x00 (0001ms, 1009ms total)
T1564 002:500 JLINK_WriteReg(R6, 0x00000000)  returns 0x00 (0000ms, 1009ms total)
T1564 002:500 JLINK_WriteReg(R7, 0x00000000)  returns 0x00 (0000ms, 1009ms total)
T1564 002:500 JLINK_WriteReg(R8, 0x00000000)  returns 0x00 (0000ms, 1009ms total)
T1564 002:500 JLINK_WriteReg(R9, 0x20000184)  returns 0x00 (0000ms, 1009ms total)
T1564 002:500 JLINK_WriteReg(R10, 0x00000000)  returns 0x00 (0000ms, 1009ms total)
T1564 002:501 JLINK_WriteReg(R11, 0x00000000)  returns 0x00 (0000ms, 1010ms total)
T1564 002:501 JLINK_WriteReg(R12, 0x00000000)  returns 0x00 (0000ms, 1010ms total)
T1564 002:501 JLINK_WriteReg(R13 (SP), 0x20001000)  returns 0x00 (0000ms, 1010ms total)
T1564 002:501 JLINK_WriteReg(R14, 0x20000001)  returns 0x00 (0000ms, 1010ms total)
T1564 002:501 JLINK_WriteReg(R15 (PC), 0x200000C6)  returns 0x00 (0000ms, 1010ms total)
T1564 002:501 JLINK_WriteReg(XPSR, 0x01000000)  returns 0x00 (0001ms, 1011ms total)
T1564 002:502 JLINK_WriteReg(MSP, 0x20001000)  returns 0x00 (0000ms, 1011ms total)
T1564 002:502 JLINK_WriteReg(PSP, 0x20001000)  returns 0x00 (0000ms, 1011ms total)
T1564 002:502 JLINK_WriteReg(CFBP, 0x00000000)  returns 0x00 (0000ms, 1011ms total)
T1564 002:502 JLINK_SetBPEx(Addr = 0x20000000, Type = 0xFFFFFFF2)  returns 0x00000007 (0000ms, 1011ms total)
T1564 002:502 JLINK_Go() >0x0D TIF> >0x28 TIF> >0x20E TIF> >0x13A TIF> >0x13A TIF> >0x13A TIF> >0x1A2 TIF> >0x0D TIF> >0x28 TIF> (0009ms, 1020ms total)
T1564 002:511 JLINK_IsHalted() -- CPU is running >0x0D TIF> >0x28 TIF> >0x1A0 TIF> >0x0D TIF> >0x28 TIF>  returns FALSE (0004ms, 1024ms total)
T1564 002:588 JLINK_IsHalted() -- CPU is running >0x0D TIF> >0x28 TIF> >0x1A0 TIF> >0x0D TIF> >0x28 TIF>  returns FALSE (0004ms, 1024ms total)
T1564 002:600 JLINK_IsHalted() -- CPU is running >0x0D TIF> >0x28 TIF> >0x1A0 TIF> >0x0D TIF> >0x28 TIF>  returns FALSE (0004ms, 1024ms total)
T1564 002:612 JLINK_IsHalted() -- CPU is running >0x0D TIF> >0x28 TIF> >0x1A0 TIF> >0x0D TIF> >0x28 TIF>  returns FALSE (0005ms, 1025ms total)
T1564 002:639 JLINK_IsHalted() -- CPU is running >0x0D TIF> >0x28 TIF> >0x1A0 TIF> >0x0D TIF> >0x28 TIF>  returns FALSE (0004ms, 1024ms total)
T1564 002:645 JLINK_IsHalted() -- CPU is running >0x0D TIF> >0x28 TIF> >0x1A0 TIF> >0x0D TIF> >0x28 TIF>  returns FALSE (0004ms, 1024ms total)
T1564 002:656 JLINK_IsHalted() -- CPU is running >0x0D TIF> >0x28 TIF> >0x1A0 TIF> >0x0D TIF> >0x28 TIF>  returns FALSE (0004ms, 1024ms total)
T1564 002:662 JLINK_IsHalted() -- CPU is running >0x0D TIF> >0x28 TIF> >0x1A0 TIF> >0x0D TIF> >0x28 TIF>  returns FALSE (0005ms, 1025ms total)
T1564 002:675 JLINK_IsHalted() -- CPU is running >0x0D TIF> >0x28 TIF> >0x1A0 TIF> >0x0D TIF> >0x28 TIF>  returns FALSE (0005ms, 1025ms total)
T1564 002:725 JLINK_IsHalted() -- CPU is running >0x0D TIF> >0x28 TIF> >0x1A0 TIF> >0x0D TIF> >0x28 TIF>  returns FALSE (0004ms, 1024ms total)
T1564 002:774 JLINK_IsHalted() -- CPU is running >0x0D TIF> >0x28 TIF> >0x1A0 TIF> >0x0D TIF> >0x28 TIF>  returns FALSE (0004ms, 1024ms total)
T1564 002:829 JLINK_IsHalted() -- CPU is running >0x0D TIF> >0x28 TIF> >0x1A0 TIF> >0x0D TIF> >0x28 TIF>  returns FALSE (0004ms, 1024ms total)
T1564 002:853 JLINK_IsHalted() -- CPU is running >0x0D TIF> >0x28 TIF> >0x1A0 TIF> >0x0D TIF> >0x28 TIF>  returns FALSE (0004ms, 1024ms total)
T1564 002:871 JLINK_IsHalted() -- CPU is running >0x0D TIF> >0x28 TIF> >0x1A0 TIF> >0x0D TIF> >0x28 TIF>  returns FALSE (0004ms, 1024ms total)
T1564 002:895 JLINK_IsHalted() -- CPU is running >0x0D TIF> >0x28 TIF> >0x1A0 TIF> >0x0D TIF> >0x28 TIF> >0x11E4 TIF> >0x0D TIF> >0x28 TIF> >0x1A0 TIF> >0x0D TIF> >0x28 TIF>  returns TRUE (0012ms, 1032ms total)
T1564 002:907 JLINK_ReadReg(R15 (PC))  returns 0x20000000 (0000ms, 1020ms total)
T1564 002:907 JLINK_ClrBPEx(BPHandle = 0x00000007)  returns 0x00 (0000ms, 1020ms total)
T1564 002:907 JLINK_ReadReg(R0)  returns 0x00000000 (0000ms, 1020ms total)
T1564 002:909 JLINK_WriteReg(R0, 0x0800C000)  returns 0x00 (0000ms, 1020ms total)
T1564 002:909 JLINK_WriteReg(R1, 0x00004000)  returns 0x00 (0000ms, 1020ms total)
T1564 002:909 JLINK_WriteReg(R2, 0x000000FF)  returns 0x00 (0000ms, 1020ms total)
T1564 002:909 JLINK_WriteReg(R3, 0x00000000)  returns 0x00 (0001ms, 1021ms total)
T1564 002:910 JLINK_WriteReg(R4, 0x00000000)  returns 0x00 (0000ms, 1021ms total)
T1564 002:910 JLINK_WriteReg(R5, 0x00000000)  returns 0x00 (0000ms, 1021ms total)
T1564 002:910 JLINK_WriteReg(R6, 0x00000000)  returns 0x00 (0000ms, 1021ms total)
T1564 002:910 JLINK_WriteReg(R7, 0x00000000)  returns 0x00 (0000ms, 1021ms total)
T1564 002:910 JLINK_WriteReg(R8, 0x00000000)  returns 0x00 (0000ms, 1021ms total)
T1564 002:911 JLINK_WriteReg(R9, 0x20000184)  returns 0x00 (0000ms, 1021ms total)
T1564 002:911 JLINK_WriteReg(R10, 0x00000000)  returns 0x00 (0000ms, 1021ms total)
T1564 002:911 JLINK_WriteReg(R11, 0x00000000)  returns 0x00 (0000ms, 1021ms total)
T1564 002:911 JLINK_WriteReg(R12, 0x00000000)  returns 0x00 (0000ms, 1021ms total)
T1564 002:911 JLINK_WriteReg(R13 (SP), 0x20001000)  returns 0x00 (0000ms, 1021ms total)
T1564 002:911 JLINK_WriteReg(R14, 0x20000001)  returns 0x00 (0000ms, 1021ms total)
T1564 002:912 JLINK_WriteReg(R15 (PC), 0x20000020)  returns 0x00 (0000ms, 1022ms total)
T1564 002:912 JLINK_WriteReg(XPSR, 0x01000000)  returns 0x00 (0000ms, 1022ms total)
T1564 002:912 JLINK_WriteReg(MSP, 0x20001000)  returns 0x00 (0000ms, 1022ms total)
T1564 002:912 JLINK_WriteReg(PSP, 0x20001000)  returns 0x00 (0000ms, 1022ms total)
T1564 002:912 JLINK_WriteReg(CFBP, 0x00000000)  returns 0x00 (0000ms, 1022ms total)
T1564 002:912 JLINK_SetBPEx(Addr = 0x20000000, Type = 0xFFFFFFF2)  returns 0x00000008 (0001ms, 1023ms total)
T1564 002:913 JLINK_Go() >0x0D TIF> >0x28 TIF> >0x20E TIF> >0x13A TIF> >0x13A TIF> >0x13A TIF> >0x13A TIF> >0x13A TIF> >0x13A TIF> >0x1A2 TIF> >0x0D TIF> >0x28 TIF> (0011ms, 1034ms total)
T1564 002:924 JLINK_IsHalted() -- CPU is running >0x0D TIF> >0x28 TIF> >0x1A0 TIF> >0x0D TIF> >0x28 TIF> >0x11E4 TIF> >0x0D TIF> >0x28 TIF> >0x1A0 TIF> >0x0D TIF> >0x28 TIF>  returns TRUE (0012ms, 1046ms total)
T1564 002:936 JLINK_ReadReg(R15 (PC))  returns 0x20000000 (0001ms, 1035ms total)
T1564 002:937 JLINK_ClrBPEx(BPHandle = 0x00000008)  returns 0x00 (0000ms, 1035ms total)
T1564 002:937 JLINK_ReadReg(R0)  returns 0x00000001 (0000ms, 1035ms total)
T1564 002:937 JLINK_WriteReg(R0, 0x0800C000)  returns 0x00 (0000ms, 1035ms total)
T1564 002:937 JLINK_WriteReg(R1, 0x00004000)  returns 0x00 (0000ms, 1035ms total)
T1564 002:937 JLINK_WriteReg(R2, 0x000000FF)  returns 0x00 (0000ms, 1035ms total)
T1564 002:937 JLINK_WriteReg(R3, 0x00000000)  returns 0x00 (0001ms, 1036ms total)
T1564 002:938 JLINK_WriteReg(R4, 0x00000000)  returns 0x00 (0000ms, 1036ms total)
T1564 002:938 JLINK_WriteReg(R5, 0x00000000)  returns 0x00 (0000ms, 1036ms total)
T1564 002:938 JLINK_WriteReg(R6, 0x00000000)  returns 0x00 (0000ms, 1036ms total)
T1564 002:938 JLINK_WriteReg(R7, 0x00000000)  returns 0x00 (0000ms, 1036ms total)
T1564 002:938 JLINK_WriteReg(R8, 0x00000000)  returns 0x00 (0000ms, 1036ms total)
T1564 002:938 JLINK_WriteReg(R9, 0x20000184)  returns 0x00 (0001ms, 1037ms total)
T1564 002:939 JLINK_WriteReg(R10, 0x00000000)  returns 0x00 (0000ms, 1037ms total)
T1564 002:939 JLINK_WriteReg(R11, 0x00000000)  returns 0x00 (0000ms, 1037ms total)
T1564 002:939 JLINK_WriteReg(R12, 0x00000000)  returns 0x00 (0000ms, 1037ms total)
T1564 002:939 JLINK_WriteReg(R13 (SP), 0x20001000)  returns 0x00 (0000ms, 1037ms total)
T1564 002:939 JLINK_WriteReg(R14, 0x20000001)  returns 0x00 (0000ms, 1037ms total)
T1564 002:939 JLINK_WriteReg(R15 (PC), 0x200000C6)  returns 0x00 (0001ms, 1038ms total)
T1564 002:940 JLINK_WriteReg(XPSR, 0x01000000)  returns 0x00 (0000ms, 1038ms total)
T1564 002:940 JLINK_WriteReg(MSP, 0x20001000)  returns 0x00 (0000ms, 1038ms total)
T1564 002:940 JLINK_WriteReg(PSP, 0x20001000)  returns 0x00 (0000ms, 1038ms total)
T1564 002:940 JLINK_WriteReg(CFBP, 0x00000000)  returns 0x00 (0000ms, 1038ms total)
T1564 002:940 JLINK_SetBPEx(Addr = 0x20000000, Type = 0xFFFFFFF2)  returns 0x00000009 (0000ms, 1038ms total)
T1564 002:941 JLINK_Go() >0x0D TIF> >0x28 TIF> >0x20E TIF> >0x13A TIF> >0x13A TIF> >0x13A TIF> >0x1A2 TIF> >0x0D TIF> >0x28 TIF> (0008ms, 1046ms total)
T1564 002:949 JLINK_IsHalted() -- CPU is running >0x0D TIF> >0x28 TIF> >0x1A0 TIF> >0x0D TIF> >0x28 TIF>  returns FALSE (0005ms, 1051ms total)
T1564 002:972 JLINK_IsHalted() -- CPU is running >0x0D TIF> >0x28 TIF> >0x1A0 TIF> >0x0D TIF> >0x28 TIF>  returns FALSE (0005ms, 1051ms total)
T1564 002:987 JLINK_IsHalted() -- CPU is running >0x0D TIF> >0x28 TIF> >0x1A0 TIF> >0x0D TIF> >0x28 TIF>  returns FALSE (0004ms, 1050ms total)
T1564 003:002 JLINK_IsHalted() -- CPU is running >0x0D TIF> >0x28 TIF> >0x1A0 TIF> >0x0D TIF> >0x28 TIF>  returns FALSE (0004ms, 1050ms total)
T1564 003:008 JLINK_IsHalted() -- CPU is running >0x0D TIF> >0x28 TIF> >0x1A0 TIF> >0x0D TIF> >0x28 TIF>  returns FALSE (0004ms, 1050ms total)
T1564 003:022 JLINK_IsHalted() -- CPU is running >0x0D TIF> >0x28 TIF> >0x1A0 TIF> >0x0D TIF> >0x28 TIF>  returns FALSE (0004ms, 1050ms total)
T1564 003:036 JLINK_IsHalted() -- CPU is running >0x0D TIF> >0x28 TIF> >0x1A0 TIF> >0x0D TIF> >0x28 TIF>  returns FALSE (0004ms, 1050ms total)
T1564 003:051 JLINK_IsHalted() -- CPU is running >0x0D TIF> >0x28 TIF> >0x1A0 TIF> >0x0D TIF> >0x28 TIF>  returns FALSE (0004ms, 1050ms total)
T1564 003:066 JLINK_IsHalted() -- CPU is running >0x0D TIF> >0x28 TIF> >0x1A0 TIF> >0x0D TIF> >0x28 TIF>  returns FALSE (0004ms, 1050ms total)
T1564 003:072 JLINK_IsHalted() -- CPU is running >0x0D TIF> >0x28 TIF> >0x1A0 TIF> >0x0D TIF> >0x28 TIF>  returns FALSE (0004ms, 1050ms total)
T1564 003:084 JLINK_IsHalted() -- CPU is running >0x0D TIF> >0x28 TIF> >0x1A0 TIF> >0x0D TIF> >0x28 TIF>  returns FALSE (0004ms, 1050ms total)
T1564 003:099 JLINK_IsHalted() -- CPU is running >0x0D TIF> >0x28 TIF> >0x1A0 TIF> >0x0D TIF> >0x28 TIF>  returns FALSE (0004ms, 1050ms total)
T1564 003:112 JLINK_IsHalted() -- CPU is running >0x0D TIF> >0x28 TIF> >0x1A0 TIF> >0x0D TIF> >0x28 TIF>  returns FALSE (0004ms, 1050ms total)
T1564 003:118 JLINK_IsHalted() -- CPU is running >0x0D TIF> >0x28 TIF> >0x1A0 TIF> >0x0D TIF> >0x28 TIF>  returns FALSE (0004ms, 1050ms total)
T1564 003:141 JLINK_IsHalted() -- CPU is running >0x0D TIF> >0x28 TIF> >0x1A0 TIF> >0x0D TIF> >0x28 TIF>  returns FALSE (0005ms, 1051ms total)
T1564 003:148 JLINK_IsHalted() -- CPU is running >0x0D TIF> >0x28 TIF> >0x1A0 TIF> >0x0D TIF> >0x28 TIF>  returns FALSE (0003ms, 1049ms total)
T1564 003:162 JLINK_IsHalted() -- CPU is running >0x0D TIF> >0x28 TIF> >0x1A0 TIF> >0x0D TIF> >0x28 TIF>  returns FALSE (0004ms, 1050ms total)
T1564 003:175 JLINK_IsHalted() -- CPU is running >0x0D TIF> >0x28 TIF> >0x1A0 TIF> >0x0D TIF> >0x28 TIF>  returns FALSE (0004ms, 1050ms total)
T1564 003:181 JLINK_IsHalted() -- CPU is running >0x0D TIF> >0x28 TIF> >0x1A0 TIF> >0x0D TIF> >0x28 TIF>  returns FALSE (0004ms, 1050ms total)
T1564 003:187 JLINK_IsHalted() -- CPU is running >0x0D TIF> >0x28 TIF> >0x1A0 TIF> >0x0D TIF> >0x28 TIF>  returns FALSE (0004ms, 1050ms total)
T1564 003:202 JLINK_IsHalted() -- CPU is running >0x0D TIF> >0x28 TIF> >0x1A0 TIF> >0x0D TIF> >0x28 TIF>  returns FALSE (0004ms, 1050ms total)
T1564 003:208 JLINK_IsHalted() -- CPU is running >0x0D TIF> >0x28 TIF> >0x1A0 TIF> >0x0D TIF> >0x28 TIF>  returns FALSE (0004ms, 1050ms total)
T1564 003:222 JLINK_IsHalted() -- CPU is running >0x0D TIF> >0x28 TIF> >0x1A0 TIF> >0x0D TIF> >0x28 TIF>  returns FALSE (0004ms, 1050ms total)
T1564 003:239 JLINK_IsHalted() -- CPU is running >0x0D TIF> >0x28 TIF> >0x1A0 TIF> >0x0D TIF> >0x28 TIF>  returns FALSE (0004ms, 1050ms total)
T1564 003:245 JLINK_IsHalted() -- CPU is running >0x0D TIF> >0x28 TIF> >0x1A0 TIF> >0x0D TIF> >0x28 TIF>  returns FALSE (0004ms, 1050ms total)
T1564 003:264 JLINK_IsHalted() -- CPU is running >0x0D TIF> >0x28 TIF> >0x1A0 TIF> >0x0D TIF> >0x28 TIF>  returns FALSE (0004ms, 1050ms total)
T1564 003:270 JLINK_IsHalted() -- CPU is running >0x0D TIF> >0x28 TIF> >0x1A0 TIF> >0x0D TIF> >0x28 TIF>  returns FALSE (0004ms, 1050ms total)
T1564 003:285 JLINK_IsHalted() -- CPU is running >0x0D TIF> >0x28 TIF> >0x1A0 TIF> >0x0D TIF> >0x28 TIF>  returns FALSE (0004ms, 1050ms total)
T1564 003:298 JLINK_IsHalted() -- CPU is running >0x0D TIF> >0x28 TIF> >0x1A0 TIF> >0x0D TIF> >0x28 TIF>  returns FALSE (0004ms, 1050ms total)
T1564 003:304 JLINK_IsHalted() -- CPU is running >0x0D TIF> >0x28 TIF> >0x1A0 TIF> >0x0D TIF> >0x28 TIF>  returns FALSE (0004ms, 1050ms total)
T1564 003:316 JLINK_IsHalted() -- CPU is running >0x0D TIF> >0x28 TIF> >0x1A0 TIF> >0x0D TIF> >0x28 TIF> >0x11E4 TIF> >0x0D TIF> >0x28 TIF> >0x1A0 TIF> >0x0D TIF> >0x28 TIF>  returns TRUE (0013ms, 1059ms total)
T1564 003:329 JLINK_ReadReg(R15 (PC))  returns 0x20000000 (0000ms, 1046ms total)
T1564 003:329 JLINK_ClrBPEx(BPHandle = 0x00000009)  returns 0x00 (0000ms, 1046ms total)
T1564 003:330 JLINK_ReadReg(R0)  returns 0x00000000 (0000ms, 1047ms total)
T1564 003:331 JLINK_WriteReg(R0, 0x08010000)  returns 0x00 (0000ms, 1047ms total)
T1564 003:331 JLINK_WriteReg(R1, 0x00010000)  returns 0x00 (0000ms, 1047ms total)
T1564 003:331 JLINK_WriteReg(R2, 0x000000FF)  returns 0x00 (0000ms, 1047ms total)
T1564 003:331 JLINK_WriteReg(R3, 0x00000000)  returns 0x00 (0001ms, 1048ms total)
T1564 003:332 JLINK_WriteReg(R4, 0x00000000)  returns 0x00 (0000ms, 1048ms total)
T1564 003:332 JLINK_WriteReg(R5, 0x00000000)  returns 0x00 (0000ms, 1048ms total)
T1564 003:332 JLINK_WriteReg(R6, 0x00000000)  returns 0x00 (0000ms, 1048ms total)
T1564 003:332 JLINK_WriteReg(R7, 0x00000000)  returns 0x00 (0000ms, 1048ms total)
T1564 003:332 JLINK_WriteReg(R8, 0x00000000)  returns 0x00 (0000ms, 1048ms total)
T1564 003:332 JLINK_WriteReg(R9, 0x20000184)  returns 0x00 (0001ms, 1049ms total)
T1564 003:333 JLINK_WriteReg(R10, 0x00000000)  returns 0x00 (0000ms, 1049ms total)
T1564 003:333 JLINK_WriteReg(R11, 0x00000000)  returns 0x00 (0000ms, 1049ms total)
T1564 003:333 JLINK_WriteReg(R12, 0x00000000)  returns 0x00 (0000ms, 1049ms total)
T1564 003:333 JLINK_WriteReg(R13 (SP), 0x20001000)  returns 0x00 (0000ms, 1049ms total)
T1564 003:333 JLINK_WriteReg(R14, 0x20000001)  returns 0x00 (0001ms, 1050ms total)
T1564 003:334 JLINK_WriteReg(R15 (PC), 0x20000020)  returns 0x00 (0000ms, 1050ms total)
T1564 003:334 JLINK_WriteReg(XPSR, 0x01000000)  returns 0x00 (0000ms, 1050ms total)
T1564 003:334 JLINK_WriteReg(MSP, 0x20001000)  returns 0x00 (0000ms, 1050ms total)
T1564 003:334 JLINK_WriteReg(PSP, 0x20001000)  returns 0x00 (0000ms, 1050ms total)
T1564 003:334 JLINK_WriteReg(CFBP, 0x00000000)  returns 0x00 (0000ms, 1050ms total)
T1564 003:334 JLINK_SetBPEx(Addr = 0x20000000, Type = 0xFFFFFFF2)  returns 0x0000000A (0001ms, 1051ms total)
T1564 003:335 JLINK_Go() >0x0D TIF> >0x28 TIF> >0x20E TIF> >0x13A TIF> >0x13A TIF> >0x13A TIF> >0x13A TIF> >0x13A TIF> >0x13A TIF> >0x1A2 TIF> >0x0D TIF> >0x28 TIF> (0011ms, 1062ms total)
T1564 003:346 JLINK_IsHalted() -- CPU is running >0x0D TIF> >0x28 TIF> >0x1A0 TIF> >0x0D TIF> >0x28 TIF> >0x11E4 TIF> >0x0D TIF> >0x28 TIF> >0x1A0 TIF> >0x0D TIF> >0x28 TIF>  returns TRUE (0012ms, 1074ms total)
T1564 003:358 JLINK_ReadReg(R15 (PC))  returns 0x20000000 (0000ms, 1062ms total)
T1564 003:358 JLINK_ClrBPEx(BPHandle = 0x0000000A)  returns 0x00 (0000ms, 1062ms total)
T1564 003:358 JLINK_ReadReg(R0)  returns 0x00000001 (0000ms, 1062ms total)
T1564 003:359 JLINK_WriteReg(R0, 0x08010000)  returns 0x00 (0000ms, 1062ms total)
T1564 003:359 JLINK_WriteReg(R1, 0x00010000)  returns 0x00 (0000ms, 1062ms total)
T1564 003:359 JLINK_WriteReg(R2, 0x000000FF)  returns 0x00 (0000ms, 1062ms total)
T1564 003:359 JLINK_WriteReg(R3, 0x00000000)  returns 0x00 (0000ms, 1062ms total)
T1564 003:359 JLINK_WriteReg(R4, 0x00000000)  returns 0x00 (0000ms, 1062ms total)
T1564 003:360 JLINK_WriteReg(R5, 0x00000000)  returns 0x00 (0000ms, 1063ms total)
T1564 003:360 JLINK_WriteReg(R6, 0x00000000)  returns 0x00 (0000ms, 1063ms total)
T1564 003:360 JLINK_WriteReg(R7, 0x00000000)  returns 0x00 (0000ms, 1063ms total)
T1564 003:360 JLINK_WriteReg(R8, 0x00000000)  returns 0x00 (0000ms, 1063ms total)
T1564 003:360 JLINK_WriteReg(R9, 0x20000184)  returns 0x00 (0001ms, 1064ms total)
T1564 003:361 JLINK_WriteReg(R10, 0x00000000)  returns 0x00 (0000ms, 1064ms total)
T1564 003:361 JLINK_WriteReg(R11, 0x00000000)  returns 0x00 (0000ms, 1064ms total)
T1564 003:361 JLINK_WriteReg(R12, 0x00000000)  returns 0x00 (0000ms, 1064ms total)
T1564 003:361 JLINK_WriteReg(R13 (SP), 0x20001000)  returns 0x00 (0000ms, 1064ms total)
T1564 003:361 JLINK_WriteReg(R14, 0x20000001)  returns 0x00 (0000ms, 1064ms total)
T1564 003:362 JLINK_WriteReg(R15 (PC), 0x200000C6)  returns 0x00 (0000ms, 1065ms total)
T1564 003:362 JLINK_WriteReg(XPSR, 0x01000000)  returns 0x00 (0000ms, 1065ms total)
T1564 003:362 JLINK_WriteReg(MSP, 0x20001000)  returns 0x00 (0000ms, 1065ms total)
T1564 003:362 JLINK_WriteReg(PSP, 0x20001000)  returns 0x00 (0000ms, 1065ms total)
T1564 003:362 JLINK_WriteReg(CFBP, 0x00000000)  returns 0x00 (0000ms, 1065ms total)
T1564 003:362 JLINK_SetBPEx(Addr = 0x20000000, Type = 0xFFFFFFF2)  returns 0x0000000B (0001ms, 1066ms total)
T1564 003:363 JLINK_Go() >0x0D TIF> >0x28 TIF> >0x20E TIF> >0x13A TIF> >0x13A TIF> >0x13A TIF> >0x1A2 TIF> >0x0D TIF> >0x28 TIF> (0008ms, 1074ms total)
T1564 003:371 JLINK_IsHalted() -- CPU is running >0x0D TIF> >0x28 TIF> >0x1A0 TIF> >0x0D TIF> >0x28 TIF>  returns FALSE (0004ms, 1078ms total)
T1564 003:396 JLINK_IsHalted() -- CPU is running >0x0D TIF> >0x28 TIF> >0x1A0 TIF> >0x0D TIF> >0x28 TIF>  returns FALSE (0004ms, 1078ms total)
T1564 003:411 JLINK_IsHalted() -- CPU is running >0x0D TIF> >0x28 TIF> >0x1A0 TIF> >0x0D TIF> >0x28 TIF>  returns FALSE (0004ms, 1078ms total)
T1564 003:424 JLINK_IsHalted() -- CPU is running >0x0D TIF> >0x28 TIF> >0x1A0 TIF> >0x0D TIF> >0x28 TIF>  returns FALSE (0004ms, 1078ms total)
T1564 003:430 JLINK_IsHalted() -- CPU is running >0x0D TIF> >0x28 TIF> >0x1A0 TIF> >0x0D TIF> >0x28 TIF>  returns FALSE (0004ms, 1078ms total)
T1564 003:436 JLINK_IsHalted() -- CPU is running >0x0D TIF> >0x28 TIF> >0x1A0 TIF> >0x0D TIF> >0x28 TIF>  returns FALSE (0004ms, 1078ms total)
T1564 003:448 JLINK_IsHalted() -- CPU is running >0x0D TIF> >0x28 TIF> >0x1A0 TIF> >0x0D TIF> >0x28 TIF>  returns FALSE (0004ms, 1078ms total)
T1564 003:462 JLINK_IsHalted() -- CPU is running >0x0D TIF> >0x28 TIF> >0x1A0 TIF> >0x0D TIF> >0x28 TIF>  returns FALSE (0004ms, 1078ms total)
T1564 003:475 JLINK_IsHalted() -- CPU is running >0x0D TIF> >0x28 TIF> >0x1A0 TIF> >0x0D TIF> >0x28 TIF>  returns FALSE (0004ms, 1078ms total)
T1564 003:488 JLINK_IsHalted() -- CPU is running >0x0D TIF> >0x28 TIF> >0x1A0 TIF> >0x0D TIF> >0x28 TIF>  returns FALSE (0004ms, 1078ms total)
T1564 003:494 JLINK_IsHalted() -- CPU is running >0x0D TIF> >0x28 TIF> >0x1A0 TIF> >0x0D TIF> >0x28 TIF>  returns FALSE (0004ms, 1078ms total)
T1564 003:506 JLINK_IsHalted() -- CPU is running >0x0D TIF> >0x28 TIF> >0x1A0 TIF> >0x0D TIF> >0x28 TIF>  returns FALSE (0004ms, 1078ms total)
T1564 003:517 JLINK_IsHalted() -- CPU is running >0x0D TIF> >0x28 TIF> >0x1A0 TIF> >0x0D TIF> >0x28 TIF>  returns FALSE (0004ms, 1078ms total)
T1564 003:523 JLINK_IsHalted() -- CPU is running >0x0D TIF> >0x28 TIF> >0x1A0 TIF> >0x0D TIF> >0x28 TIF>  returns FALSE (0004ms, 1078ms total)
T1564 003:547 JLINK_IsHalted() -- CPU is running >0x0D TIF> >0x28 TIF> >0x1A0 TIF> >0x0D TIF> >0x28 TIF>  returns FALSE (0004ms, 1078ms total)
